# MHz S MA R 50
!   freq        S11              S21              S12              S22       
1.000000  0.99901   -0.63  1.64949    1.30  1.64536    1.60  0.99914   -0.65
6.010025  1.00752   -3.65  1.65133    2.55  1.64801    2.48  1.00767   -3.67
11.020050  0.99710  -12.14  1.72414  -20.93  1.71672  -20.96  0.99828  -12.10
16.030075  0.93620  -10.97  1.66254  -12.41  1.69769  -12.20  0.93573  -10.98
21.040100  0.94907  -12.94  1.66961  -12.49  1.69962  -12.56  0.94932  -12.95
26.050125  0.95095  -15.38  1.68195  -14.72  1.66474  -15.34  0.95457  -15.42
31.060150  0.95437  -18.20  1.68084  -16.68  1.68827  -16.94  0.95448  -18.27
36.070175  0.95146  -20.89  1.69725  -18.96  1.67763  -19.06  0.95096  -20.88
41.080201  0.94868  -23.63  1.69248  -20.90  1.68789  -21.24  0.94962  -23.61
46.090226  0.94785  -26.22  1.67280  -23.07  1.67367  -22.84  0.94811  -26.23
51.100251  0.94636  -28.85  1.66322  -24.76  1.67158  -24.62  0.94609  -28.87
56.110276  0.94587  -31.52  1.67353  -26.22  1.66056  -25.91  0.94534  -31.50
61.120301  0.94374  -34.15  1.65950  -28.49  1.64516  -28.09  0.94382  -34.16
66.130326  0.94232  -36.74  1.63624  -29.76  1.63571  -29.51  0.94226  -36.71
71.140351  0.93982  -39.27  1.64664  -31.40  1.64845  -31.11  0.93954  -39.25
76.150376  0.93785  -41.76  1.63071  -32.98  1.61555  -32.99  0.93861  -41.78
81.160401  0.93559  -44.18  1.61708  -34.35  1.60769  -34.34  0.93618  -44.16
86.170426  0.93429  -46.50  1.60363  -35.74  1.60353  -35.72  0.93407  -46.49
91.180451  0.93300  -48.82  1.59000  -37.04  1.59001  -37.00  0.93305  -48.83
96.190476  0.93258  -51.03  1.57940  -38.29  1.58035  -38.24  0.93275  -51.03
101.200501  0.92800  -53.59  1.43113  -39.15  1.43241  -39.36  0.92748  -53.75
106.210526  0.92002  -56.09  1.44213  -40.74  1.43029  -40.69  0.91948  -56.07
111.220551  0.91637  -58.25  1.44548  -41.48  1.43585  -41.70  0.91628  -58.24
116.230576  0.91373  -60.47  1.44163  -42.71  1.43606  -42.86  0.91363  -60.46
121.240602  0.91168  -62.66  1.44431  -44.42  1.44397  -44.42  0.91174  -62.65
126.250627  0.90946  -64.83  1.44943  -45.85  1.44558  -45.26  0.90900  -64.82
131.260652  0.90624  -66.99  1.44444  -47.19  1.44216  -47.14  0.90623  -66.98
136.270677  0.90306  -69.15  1.44176  -48.58  1.45730  -48.18  0.90296  -69.16
141.280702  0.89954  -71.29  1.45618  -50.34  1.45300  -50.50  0.89945  -71.27
146.290727  0.89470  -73.42  1.44847  -52.25  1.45978  -52.31  0.89510  -73.42
151.300752  0.88845  -75.44  1.46375  -54.66  1.44991  -54.37  0.88808  -75.45
156.310777  0.88105  -77.35  1.45538  -56.73  1.46081  -56.15  0.88080  -77.38
161.320802  0.87394  -79.16  1.45221  -58.40  1.45265  -58.39  0.87404  -79.17
166.330827  0.86728  -80.79  1.45383  -60.19  1.45222  -60.25  0.86746  -80.78
171.340852  0.86235  -82.31  1.44761  -62.16  1.43893  -62.21  0.86287  -82.31
176.350877  0.86112  -83.82  1.45021  -63.69  1.43736  -64.04  0.86186  -83.84
181.360902  0.85798  -85.49  1.43604  -65.98  1.43478  -66.20  0.85862  -85.52
186.370927  0.85548  -87.04  1.43954  -67.91  1.44152  -68.62  0.85494  -87.14
191.380952  0.85211  -88.67  1.42574  -70.27  1.44292  -70.28  0.85114  -88.70
196.390977  0.84899  -90.22  1.41530  -72.58  1.42211  -72.74  0.84808  -90.23
201.401003  0.84577  -91.80  1.42741  -74.77  1.40660  -74.78  0.84547  -91.83
206.411028  0.84204  -93.33  1.39974  -77.07  1.40920  -77.04  0.84176  -93.35
211.421053  0.83748  -94.90  1.38695  -79.26  1.38517  -79.31  0.83676  -94.91
216.431078  0.83241  -96.42  1.35936  -81.51  1.35780  -81.54  0.83181  -96.41
221.441103  0.82655  -97.93  1.32817  -83.76  1.32693  -83.75  0.82620  -97.92
226.451128  0.81849  -99.33  1.29268  -85.83  1.29118  -85.84  0.81809  -99.34
231.461153  0.80979 -100.62  1.25229  -87.74  1.25163  -87.73  0.80986 -100.61
236.471178  0.80138 -101.73  1.21029  -89.39  1.20898  -89.37  0.80097 -101.74
241.481203  0.79317 -102.63  1.16826  -90.57  1.16833  -90.53  0.79311 -102.59
246.491228  0.78773 -103.30  1.13187  -91.35  1.13272  -91.33  0.78788 -103.29
251.501253  0.78432 -103.94  1.10305  -91.88  1.10432  -91.88  0.78490 -103.95
256.511278  0.78393 -104.58  1.08260  -92.33  1.08332  -92.36  0.78393 -104.60
261.521303  0.78451 -105.34  1.06661  -92.81  1.06698  -92.86  0.78434 -105.38
266.531328  0.78604 -106.16  1.05353  -93.32  1.05353  -93.38  0.78580 -106.17
271.541353  0.78809 -107.00  1.04426  -93.84  1.04457  -93.93  0.78793 -107.03
276.551378  0.78996 -107.91  1.03755  -94.47  1.03832  -94.57  0.78980 -107.97
281.561404  0.79269 -108.86  1.03401  -95.06  1.03516  -95.21  0.79266 -108.93
286.571429  0.79559 -110.01  1.03556  -95.90  1.03590  -96.17  0.79522 -110.13
291.581454  0.79772 -111.34  1.04024  -97.21  1.03787  -97.53  0.79607 -111.43
296.591479  0.79518 -112.79  1.03936  -99.05  1.03176  -99.40  0.79188 -112.84
301.601504  0.78795 -114.31  1.03203 -101.43  1.01739 -101.34  0.78436 -114.11
306.611529  0.76847 -115.26  0.97806 -103.98  0.97641 -103.28  0.77034 -114.96
311.621554  0.76226 -115.00  0.93526 -103.18  0.93910 -102.94  0.76381 -114.95
316.631579  0.76538 -115.29  0.92718 -102.61  0.92947 -102.48  0.76595 -115.28
321.641604  0.76723 -115.92  0.92643 -102.72  0.92864 -102.65  0.76821 -115.92
326.651629  0.76855 -116.61  0.92523 -103.13  0.92694 -103.09  0.76893 -116.62
331.661654  0.76877 -117.35  0.92505 -103.16  0.92613 -103.65  0.76999 -117.35
336.671679  0.76919 -118.10  0.92363 -104.16  0.92487 -104.34  0.77021 -118.11
341.681704  0.76821 -118.80  0.92216 -104.42  0.92205 -105.05  0.76935 -118.84
346.691729  0.76925 -119.45  0.92115 -105.05  0.92047 -105.69  0.76997 -119.51
351.701754  0.76902 -120.18  0.92183 -105.71  0.92219 -105.92  0.76966 -120.21
356.711779  0.76924 -120.86  0.92430 -106.37  0.92244 -106.93  0.76974 -120.91
361.721805  0.76909 -121.61  0.92586 -107.29  0.92596 -107.45  0.76942 -121.62
366.731830  0.76965 -122.29  0.92847 -108.14  0.92890 -108.27  0.77010 -122.34
371.741855  0.76951 -123.04  0.93096 -109.13  0.93086 -109.31  0.76916 -123.08
376.751880  0.76843 -123.80  0.93381 -110.24  0.93505 -110.27  0.76923 -123.80
381.761905  0.76913 -124.54  0.93714 -111.40  0.93754 -111.47  0.76945 -124.52
386.771930  0.76822 -125.31  0.93921 -112.77  0.93966 -112.89  0.76831 -125.36
391.781955  0.76482 -126.06  0.93504 -114.29  0.93617 -114.39  0.76472 -126.08
396.791980  0.76263 -126.57  0.92790 -115.42  0.92826 -115.52  0.76293 -126.60
401.802005  0.76225 -127.12  0.92639 -116.42  0.92601 -116.50  0.76213 -127.15
406.812030  0.76227 -127.75  0.92583 -117.49  0.92552 -117.52  0.76223 -127.72
411.822055  0.76185 -128.34  0.92473 -118.64  0.92486 -118.69  0.76188 -128.32
416.832080  0.76104 -128.98  0.92285 -119.91  0.92275 -119.91  0.76112 -128.94
421.842105  0.76044 -129.56  0.92093 -121.07  0.92096 -121.11  0.76039 -129.56
426.852130  0.75953 -130.13  0.91866 -122.26  0.91801 -122.30  0.75905 -130.15
431.862155  0.75856 -130.67  0.91574 -123.44  0.91539 -123.48  0.75849 -130.70
436.872180  0.75829 -131.20  0.91381 -124.57  0.91368 -124.61  0.75834 -131.22
441.882206  0.75825 -131.77  0.91097 -125.77  0.91031 -125.79  0.75773 -131.78
446.892231  0.75739 -132.36  0.90862 -126.94  0.90809 -126.95  0.75749 -132.35
451.902256  0.75630 -132.90  0.90511 -128.11  0.90477 -128.11  0.75628 -132.89
456.912281  0.75595 -133.47  0.90266 -129.25  0.90184 -129.26  0.75517 -133.48
461.922306  0.75475 -134.03  0.89928 -130.37  0.89914 -130.37  0.75492 -134.02
466.932331  0.75407 -134.55  0.89527 -131.67  0.89692 -131.46  0.75439 -134.55
471.942356  0.75357 -135.12  0.89270 -132.98  0.89487 -132.57  0.75356 -135.10
476.952381  0.75244 -135.68  0.89087 -134.07  0.89243 -133.69  0.75216 -135.66
481.962406  0.75162 -136.17  0.89076 -135.14  0.89079 -135.17  0.75171 -136.18
486.972431  0.75061 -136.70  0.89007 -136.25  0.88962 -136.29  0.75036 -136.69
491.982456  0.74947 -137.22  0.88837 -137.39  0.88802 -137.42  0.74929 -137.22
496.992481  0.74819 -137.74  0.88803 -138.53  0.88736 -138.54  0.74789 -137.74
502.002506  0.74588 -138.28  0.88827 -139.59  0.88834 -139.63  0.74622 -138.27
507.012531  0.74451 -138.79  0.88937 -140.77  0.88974 -140.76  0.74504 -138.76
512.022556  0.74328 -139.33  0.89042 -141.97  0.88995 -142.00  0.74308 -139.31
517.032581  0.74062 -139.82  0.89125 -143.28  0.89123 -143.27  0.74076 -139.83
522.042607  0.73874 -140.33  0.89235 -144.55  0.89193 -144.59  0.73857 -140.33
527.052632  0.73599 -140.85  0.89314 -145.92  0.89293 -145.93  0.73612 -140.82
532.062657  0.73305 -141.32  0.89487 -147.30  0.89441 -147.31  0.73299 -141.30
537.072682  0.73028 -141.81  0.89515 -148.83  0.89494 -148.80  0.73029 -141.76
542.082707  0.72680 -142.25  0.89419 -150.35  0.89419 -150.36  0.72708 -142.24
547.092732  0.72367 -142.67  0.89452 -151.92  0.89495 -151.92  0.72439 -142.67
552.102757  0.71953 -143.04  0.89095 -153.50  0.89257 -153.55  0.71990 -143.06
557.112782  0.71507 -143.42  0.88669 -155.04  0.88990 -155.27  0.71575 -143.46
562.122807  0.71121 -143.71  0.88284 -156.73  0.88569 -157.05  0.71141 -143.79
567.132832  0.70594 -144.05  0.87775 -158.70  0.87908 -158.82  0.70602 -144.08
572.142857  0.70163 -144.22  0.86742 -160.12  0.87000 -160.54  0.70171 -144.27
577.152882  0.69749 -144.35  0.85865 -161.93  0.85945 -162.13  0.69743 -144.37
582.162907  0.69320 -144.44  0.84783 -163.45  0.84536 -163.21  0.69281 -144.40
587.172932  0.69008 -144.50  0.83470 -164.73  0.83631 -165.07  0.69087 -144.54
592.182957  0.68788 -144.57  0.82322 -166.41  0.82185 -166.09  0.68740 -144.48
597.192982  0.68507 -144.57  0.80883 -167.40  0.80797 -167.33  0.68536 -144.57
602.203008  0.68332 -144.57  0.79470 -168.42  0.79519 -168.65  0.68339 -144.59
607.213033  0.68249 -144.58  0.78273 -169.61  0.78294 -169.05  0.68221 -144.54
612.223058  0.68222 -144.58  0.77315 -169.73  0.77274 -170.02  0.68228 -144.63
617.233083  0.68207 -144.74  0.76626 -170.48  0.76638 -170.45  0.68202 -144.70
622.243108  0.68210 -144.91  0.76293 -171.24  0.76481 -170.79  0.68203 -144.87
627.253133  0.68254 -145.05  0.76195 -171.77  0.76109 -172.04  0.68247 -145.05
632.263158  0.68143 -145.31  0.76002 -173.06  0.76229 -172.57  0.68170 -145.25
637.273183  0.68136 -145.46  0.75754 -174.00  0.75995 -173.67  0.68174 -145.42
642.283208  0.68039 -145.62  0.75491 -174.80  0.75541 -174.66  0.68004 -145.62
647.293233  0.67893 -145.79  0.74521 -176.32  0.75249 -175.42  0.67997 -145.70
652.303258  0.67938 -145.88  0.74444 -176.71  0.74694 -176.35  0.67965 -145.85
657.313283  0.67921 -146.08  0.73985 -177.68  0.74401 -177.21  0.67937 -146.04
662.323308  0.67754 -146.29  0.73634 -178.59  0.74197 -178.02  0.67877 -146.22
667.333333  0.67773 -146.41  0.73745 -179.15  0.73935 -179.04  0.67859 -146.44
672.343358  0.67737 -146.57  0.73351  179.79  0.73641 -179.99  0.67742 -146.60
677.353383  0.67713 -146.74  0.73231  178.92  0.73378  179.03  0.67709 -146.69
682.363409  0.67658 -146.88  0.72933  178.01  0.72962  178.00  0.67605 -146.95
687.373434  0.67590 -147.04  0.72498  177.00  0.72693  177.11  0.67602 -147.06
692.383459  0.67469 -147.21  0.72089  176.05  0.72217  176.10  0.67525 -147.27
697.393484  0.67369 -147.32  0.71560  175.29  0.71596  175.32  0.67354 -147.29
702.403509  0.67317 -147.41  0.70963  174.52  0.71141  174.58  0.67372 -147.40
707.413534  0.67420 -147.54  0.70706  173.98  0.70783  173.99  0.67438 -147.52
712.423559  0.67399 -147.68  0.70527  173.41  0.70644  173.39  0.67434 -147.72
717.433584  0.67468 -147.83  0.70523  172.81  0.70592  172.84  0.67460 -147.83
722.443609  0.67411 -147.98  0.70594  172.25  0.70633  172.16  0.67429 -148.03
727.453634  0.67398 -148.19  0.70706  171.58  0.70754  171.57  0.67393 -148.19
732.463659  0.67331 -148.35  0.70814  170.90  0.70827  170.83  0.67343 -148.36
737.473684  0.67276 -148.52  0.71061  170.16  0.71109  170.15  0.67302 -148.51
742.483709  0.67212 -148.70  0.71296  169.43  0.71316  169.40  0.67195 -148.71
747.493734  0.67169 -148.82  0.71560  168.59  0.71537  168.60  0.67167 -148.79
752.503759  0.67097 -148.97  0.71866  167.86  0.71869  167.80  0.67122 -148.99
757.513784  0.67034 -149.10  0.72212  166.99  0.72228  167.01  0.67033 -149.09
762.523810  0.66908 -149.27  0.71942  165.94  0.72564  166.14  0.66946 -149.23
767.533835  0.66750 -149.42  0.71660  164.87  0.71931  164.91  0.66801 -149.43
772.543860  0.66672 -149.59  0.72118  164.02  0.72093  164.03  0.66678 -149.55
777.553885  0.66647 -149.70  0.72634  163.21  0.72594  163.19  0.66632 -149.67
782.563910  0.66513 -149.89  0.73183  162.31  0.73138  162.27  0.66513 -149.87
787.573935  0.66388 -150.03  0.73880  161.33  0.73884  161.35  0.66407 -150.00
792.583960  0.66236 -150.11  0.74598  160.30  0.74567  160.30  0.66244 -150.11
797.593985  0.66174 -150.22  0.75338  159.13  0.75274  159.15  0.66126 -150.20
802.604010  0.66066 -150.29  0.76080  158.00  0.76066  158.00  0.66079 -150.29
807.614035  0.66018 -150.33  0.76855  156.81  0.76775  156.78  0.65986 -150.34
812.624060  0.65895 -150.41  0.77585  155.45  0.77550  155.44  0.65916 -150.43
817.634085  0.65798 -150.53  0.78321  154.12  0.78313  154.19  0.65838 -150.51
822.644110  0.65778 -150.60  0.79091  152.72  0.79047  152.75  0.65767 -150.63
827.654135  0.65746 -150.74  0.79810  151.25  0.79800  151.30  0.65768 -150.73
832.664160  0.65680 -150.83  0.81126  149.78  0.80562  149.75  0.65639 -150.79
837.674185  0.65543 -150.94  0.81468  148.11  0.81257  148.10  0.65544 -150.93
842.684211  0.65503 -151.02  0.82703  146.48  0.81931  146.45  0.65451 -151.02
847.694236  0.65380 -151.10  0.82773  144.73  0.82718  144.80  0.65464 -151.07
852.704261  0.65376 -151.17  0.83766  143.02  0.83314  143.03  0.65358 -151.16
857.714286  0.65348 -151.26  0.84532  141.22  0.83365  141.19  0.65288 -151.24
862.724311  0.65199 -151.37  0.84839  139.35  0.84168  139.41  0.65159 -151.35
867.734336  0.65126 -151.40  0.85324  137.55  0.84280  137.59  0.65059 -151.37
872.744361  0.65051 -151.48  0.85534  135.62  0.84303  135.72  0.64975 -151.44
877.754386  0.64993 -151.52  0.85673  133.76  0.84492  133.82  0.64957 -151.47
882.764411  0.64885 -151.67  0.85832  131.83  0.84584  131.95  0.64874 -151.61
887.774436  0.64821 -151.76  0.85763  129.90  0.84472  130.04  0.64741 -151.70
892.784461  0.64757 -151.80  0.85722  128.06  0.84480  128.18  0.64694 -151.76
897.794486  0.64661 -151.86  0.85535  126.11  0.84288  126.30  0.64613 -151.80
902.804511  0.64580 -151.91  0.85199  124.23  0.84001  124.45  0.64506 -151.83
907.814536  0.64524 -152.00  0.84950  122.33  0.83719  122.53  0.64436 -152.02
912.824561  0.64385 -152.08  0.84536  120.54  0.83362  120.77  0.64307 -152.06
917.834586  0.64233 -152.16  0.84110  118.74  0.82952  118.94  0.64181 -152.13
922.844612  0.64132 -152.22  0.83746  116.98  0.82623  117.20  0.64110 -152.16
927.854637  0.63990 -152.26  0.83255  115.19  0.82212  115.46  0.64001 -152.19
932.864662  0.63899 -152.30  0.82804  113.50  0.81712  113.71  0.63840 -152.25
937.874687  0.63752 -152.33  0.82270  111.73  0.81256  112.03  0.63755 -152.26
942.884712  0.63650 -152.39  0.81822  110.10  0.80833  110.32  0.63599 -152.34
947.894737  0.63497 -152.39  0.81420  108.37  0.80361  108.59  0.63422 -152.32
952.904762  0.63365 -152.39  0.80864  106.66  0.79853  106.99  0.63362 -152.31
957.914787  0.63238 -152.43  0.80464  105.01  0.79418  105.28  0.63188 -152.32
962.924812  0.63080 -152.38  0.79911  103.33  0.78968  103.50  0.63109 -152.36
967.934837  0.62890 -152.24  0.79052  101.62  0.78459  101.87  0.62957 -152.21
972.944862  0.62735 -152.20  0.77975  100.08  0.77933  100.19  0.62784 -152.14
977.954887  0.62673 -152.09  0.77534   98.36  0.77502   98.37  0.62625 -152.14
982.964912  0.62494 -151.98  0.76930   96.60  0.76901   96.73  0.62520 -152.00
987.974937  0.62352 -151.85  0.76312   94.82  0.76382   94.88  0.62421 -151.93
992.984962  0.62256 -151.68  0.75672   93.03  0.75678   93.11  0.62283 -151.76
997.994987  0.62210 -151.57  0.75004   91.17  0.75049   91.29  0.62221 -151.61
1003.005013  0.62166 -151.36  0.74223   89.35  0.74235   89.43  0.62153 -151.37
1008.015038  0.62120 -151.19  0.73349   87.60  0.73398   87.67  0.62147 -151.27
1013.025063  0.62147 -150.96  0.72344   85.71  0.72427   85.83  0.62115 -151.02
1018.035088  0.62198 -150.76  0.71245   83.95  0.71313   84.08  0.62189 -150.83
1023.045113  0.62275 -150.60  0.70023   82.29  0.70183   82.39  0.62290 -150.63
1028.055138  0.62369 -150.38  0.68761   80.73  0.68899   80.79  0.62354 -150.42
1033.065163  0.62641 -150.29  0.67878   79.25  0.67546   79.28  0.62542 -150.24
1038.075188  0.62788 -150.18  0.66192   78.03  0.66257   78.05  0.62714 -150.16
1043.085213  0.63030 -150.07  0.65082   76.91  0.64871   76.87  0.63002 -150.04
1048.095238  0.63277 -149.99  0.63901   75.95  0.63719   75.93  0.63230 -149.94
1053.105263  0.63529 -149.99  0.62471   75.28  0.62562   75.15  0.63520 -149.95
1058.115288  0.63744 -150.01  0.61802   74.61  0.61705   74.56  0.63789 -149.96
1063.125313  0.63952 -150.00  0.61076   74.13  0.61050   74.00  0.63938 -149.97
1068.135338  0.64153 -150.14  0.60499   73.57  0.60536   73.44  0.64139 -150.14
1073.145363  0.64307 -150.24  0.60358   73.00  0.60379   72.87  0.64301 -150.19
1078.155388  0.64454 -150.35  0.60255   72.32  0.60232   72.13  0.64462 -150.35
1083.165414  0.64602 -150.50  0.60358   71.63  0.60304   71.49  0.64590 -150.45
1088.175439  0.64621 -150.58  0.60500   70.75  0.60434   70.66  0.64639 -150.55
1093.185464  0.64620 -150.80  0.60821   69.78  0.60759   69.73  0.64654 -150.75
1098.195489  0.64702 -150.91  0.61236   68.58  0.61132   68.53  0.64745 -150.90
1103.205514  0.64600 -151.03  0.61621   67.29  0.61585   67.28  0.64659 -151.03
1108.215539  0.64541 -151.20  0.62030   65.71  0.61973   65.71  0.64597 -151.19
1113.225564  0.64489 -151.29  0.62349   64.04  0.62313   64.03  0.64524 -151.26
1118.235589  0.64405 -151.35  0.62541   62.19  0.62550   62.18  0.64419 -151.40
1123.245614  0.64355 -151.42  0.62615   60.22  0.62563   60.24  0.64390 -151.41
1128.255639  0.64231 -151.38  0.62498   58.25  0.62479   58.30  0.64300 -151.38
1133.265664  0.64149 -151.37  0.62304   56.30  0.62282   56.33  0.64206 -151.42
1138.275689  0.64029 -151.38  0.62080   54.23  0.62072   54.33  0.64046 -151.39
1143.285714  0.63974 -151.28  0.61694   52.11  0.61663   52.18  0.63970 -151.29
1148.295739  0.63896 -151.26  0.61154   49.95  0.61126   50.01  0.63882 -151.29
1153.305764  0.63889 -151.14  0.60428   47.74  0.60421   47.85  0.63885 -151.19
1158.315789  0.63890 -150.99  0.59538   45.62  0.59564   45.71  0.63851 -151.04
1163.325815  0.63889 -150.94  0.58427   43.50  0.58544   43.62  0.63885 -150.94
1168.335840  0.63971 -150.76  0.57159   41.66  0.57259   41.72  0.63951 -150.79
1173.345865  0.64099 -150.61  0.55871   39.99  0.55939   39.97  0.64053 -150.68
1178.355890  0.64260 -150.52  0.54625   38.56  0.54677   38.52  0.64251 -150.57
1183.365915  0.64431 -150.49  0.53535   37.34  0.53563   37.35  0.64411 -150.49
1188.375940  0.64689 -150.47  0.52569   36.17  0.52552   36.13  0.64655 -150.51
1193.385965  0.64896 -150.56  0.51656   34.95  0.51708   34.96  0.64922 -150.56
1198.395990  0.65072 -150.61  0.50808   33.74  0.50845   33.74  0.65070 -150.62
1203.406015  0.65272 -150.68  0.50000   32.54  0.50033   32.56  0.65232 -150.67
1208.416040  0.65377 -150.87  0.49114   31.37  0.49176   31.37  0.65357 -150.84
1213.426065  0.65502 -150.92  0.48243   30.24  0.48287   30.23  0.65410 -150.90
1218.436090  0.65597 -150.97  0.47431   29.23  0.47555   29.11  0.65545 -151.01
1223.446115  0.65644 -151.10  0.46644   28.34  0.46678   28.25  0.65625 -151.09
1228.456140  0.65739 -151.20  0.45893   27.48  0.46011   27.23  0.65656 -151.18
1233.466165  0.65795 -151.29  0.45282   26.64  0.45332   26.43  0.65758 -151.26
1238.476190  0.65864 -151.38  0.44684   25.83  0.44738   25.62  0.65828 -151.38
1243.486216  0.65852 -151.52  0.44136   25.06  0.44304   24.61  0.65812 -151.46
1248.496241  0.65848 -151.61  0.43677   24.33  0.43649   24.17  0.65879 -151.57
1253.506266  0.65831 -151.68  0.43256   23.52  0.43355   23.10  0.65755 -151.69
